  can0  00C   [0] 
  can0  00E   [8]  08 90 1C 8A 00 00 00 00
  can0  00E   [8]  08 90 1C 8A 00 00 00 00
  can0  7B3   [0] 
  can0  00E   [8]  08 90 1C 8A 00 00 00 00
  can0  7B3   [0] 
  can0  00E   [8]  08 90 1C 8A 00 00 00 00
  can0  00E   [8]  08 90 1C 8A 00 00 00 00
  can0  1F00082F   [0]  remote request
  can0  1F10B100   [0]  remote request
  can0  1F201E0E   [0]  remote request
  can0  1F304648   [0]  remote request
  can0  1F40DD00   [0]  remote request
  can0  1F501200   [0]  remote request
  can0  1F607B00   [0]  remote request
  can0  1F704500   [0]  remote request
  can0  1F010808   [0] 
  can0  1F11B190   [0] 
  can0  1F211E1C   [0] 
  can0  1F31468A   [0] 
  can0  1F41DD00   [0] 
  can0  1F511200   [0] 
  can0  1F617B00   [0] 
  can0  1F714500   [0] 
  can0       00E   [8]  08 90 1C 8A 00 00 00 00
  can0       00E   [8]  08 90 1C 8A 00 00 00 00
  can0       00E   [8]  08 90 1C 8A 00 00 00 00
  can0       00E   [8]  08 90 1C 8A 00 00 00 00
  can0       7B1   [0] 
  can0       00E   [8]  08 90 1C 8A 00 00 00 00
  can0       7B0   [0]  remote request
  can0       7B0   [0] 
  can0       00E   [8]  08 90 1C 8A 00 00 00 00
  can0  1C0C0000   [1]  28
  can0       00E   [8]  08 90 1C 8A 00 00 00 00
  can0  1C240101   [0] 
  can0  03C30F0F   [7]  87 87 87 87 87 87 87
  can0       00E   [8]  08 90 1C 8A 00 00 00 00
  can0       00E   [8]  08 90 1C 8A 00 00 00 00
  can0  03C30F0F   [7]  87 87 87 87 87 87 87
  can0  1C200000   [5]  05 15 00 00 01
  can0       00E   [8]  08 90 1C 8A 00 00 00 00
  can0       781   [8]  40 C1 00 00 00 00 00 00
  can0       790   [8]  21 C1 00 00 00 00 00 00
  can0       781   [8]  40 C7 00 00 00 00 00 00
  can0       790   [8]  21 C7 00 00 01 00 00 00
  can0       00E   [8]  08 90 1C 8A 00 00 00 00
  can0  03C30F0F   [7]  87 87 87 87 87 87 87
  can0       00E   [8]  08 90 1C 8A 00 00 00 00
  can0       00E   [8]  08 90 1C 8A 00 00 00 00
  can0  03C30F0F   [7]  87 87 87 87 87 87 87
  can0       00E   [8]  08 90 1C 8A 00 00 00 00
  can0       00E   [8]  08 90 1C 8A 00 00 00 00
  can0  03C30F0F   [7]  87 87 87 87 87 87 87
  can0       00E   [8]  08 90 1C 8A 00 00 00 00
  can0       00E   [8]  08 90 1C 8A 00 00 00 00
  can0  03C30F0F   [7]  87 87 87 87 87 87 87
  can0       00E   [8]  08 90 1C 8A 00 00 00 00
  can0       050   [4]  C0 00 FF 00
  can0       00E   [8]  08 90 1C 8A 00 00 00 00
  can0       00E   [8]  08 90 1C 8A 00 00 00 00
  can0  0C140000   [1]  C1
  can0       040   [4]  00 00 00 00
  can0       781   [8]  20 80 00 00 11 00 00 00
  can0       790   [8]  41 80 00 00 00 00 00 00
  can0       781   [8]  40 80 00 00 00 00 00 00
  can0       781   [8]  20 81 00 00 06 00 01 00
  can0  03C30F0F   [7]  87 87 87 87 87 87 87
  can0       790   [8]  41 81 00 00 00 00 00 00
  can0       781   [8]  40 8F 00 00 00 00 00 00
  can0       781   [8]  20 81 00 00 02 00 00 00
  can0       790   [8]  41 81 00 00 00 00 00 00
  can0       781   [8]  40 8F 00 00 00 00 00 00
  can0       790   [8]  41 81 00 00 00 00 00 00
  can0       781   [8]  40 8F 00 00 00 00 00 00
  can0       781   [8]  40 8F 00 00 00 00 00 00
  can0       781   [8]  20 81 00 00 13 00 01 00
  can0       790   [8]  41 81 00 00 00 00 00 00
  can0       781   [8]  40 8F 00 00 00 00 00 00
  can0       781   [8]  20 81 00 00 0E 00 01 00
  can0       790   [8]  41 81 00 00 00 00 00 00
  can0       781   [8]  40 8F 00 00 00 00 00 00
  can0       781   [8]  20 81 00 00 18 00 01 00
  can0       00E   [8]  08 90 1C 8A 00 00 00 00
  can0  03C30F0F   [7]  87 87 87 87 87 87 87
  can0       00E   [8]  08 90 1C 8A 00 00 00 00
  can0       790   [8]  41 81 00 00 00 00 00 00
  can0       781   [8]  40 8F 00 00 00 00 00 00
  can0       781   [8]  20 80 00 00 00 00 00 00
  can0       781   [8]  40 40 00 00 00 00 00 00
  can0       790   [8]  21 40 00 00 00 00 10 7F
  can0       781   [8]  40 50 00 00 00 00 00 00
  can0       790   [8]  21 50 00 00 10 00 00 00
  can0       041   [4]  00 00 00 00
  can0       040   [4]  80 00 00 00
  can0       040   [4]  80 00 00 00
  can0       040   [4]  80 00 00 00
  can0       050   [4]  10 04 00 02
  can0       050   [4]  10 04 00 02
  can0       050   [4]  10 04 00 02
  can0       061   [4]  00 40 00 00
  can0       060   [4]  11 00 00 02
  can0       060   [4]  20 00 00 00
  can0  0C180102   [2]  00 03
  can0       060   [4]  30 00 00 01
  can0       060   [4]  80 00 00 80
  can0  0A040100   [1]  19
  can0  03C30F0F   [7]  87 87 87 87 87 87 87
  can0  0C140000   [1]  C0
  can0  0C180000   [2]  01 01
  can0       00E   [8]  08 90 1C 8A 00 00 00 00
  can0       00E   [8]  08 90 1C 8A 00 00 00 00
  can0  03C30F0F   [7]  87 87 87 87 87 87 87
  can0  0C140000   [1]  C1
  can0       00E   [8]  08 90 1C 8A 00 00 00 00
  can0  1C0C0000   [1]  28
  can0       00E   [8]  08 90 1C 8A 00 00 00 00
  can0  02000100   [2]  00 00
  can0  03C30F0F   [7]  87 87 87 87 87 87 87
  can0  02000100   [2]  00 00
  can0  02000100   [2]  00 00
  can0       00E   [8]  08 90 1C 8A 00 00 00 00
  can0  02000100   [2]  00 00
  can0  02000100   [2]  00 00
  can0  02000100   [2]  00 00
  can0  02000100   [2]  00 00
  can0  02000100   [2]  00 00
  can0       00E   [8]  08 90 1C 8A 00 00 00 00
  can0  02000100   [2]  00 00
  can0  02000100   [2]  00 00
  can0  02000100   [2]  00 00
  can0  03C30F0F   [7]  87 87 87 87 87 87 87
  can0  02000100   [2]  00 00
  can0  02000100   [2]  00 00
  can0       00E   [8]  08 90 1C 8A 00 00 00 00
  can0  02000100   [2]  00 00
  can0  02000100   [2]  00 00
  can0  02000100   [2]  00 00
  can0  02000100   [2]  00 00
  can0  02000100   [2]  00 00
  can0       00E   [8]  08 90 1C 8A 00 00 00 00
  can0  02000100   [2]  00 00
  can0  02000100   [2]  00 00
  can0  02000100   [2]  00 00
  can0  03C30F0F   [7]  87 87 87 87 87 87 87
  can0  02000100   [2]  00 00
  can0  02000100   [2]  00 00
  can0       00E   [8]  08 90 1C 8A 00 00 00 00
  can0  02000100   [2]  00 00
  can0  02000100   [2]  00 00
  can0  02000100   [2]  00 00
  can0  02000100   [2]  00 00
  can0  02000100   [2]  00 00
  can0       00E   [8]  08 90 1C 8A 00 00 00 00
  can0  02000100   [2]  00 00
  can0  02000100   [2]  00 00
  can0  02000100   [2]  00 00
  can0  03C30F0F   [7]  87 87 87 87 87 87 87
  can0  02000100   [2]  00 00
  can0  02000100   [2]  00 00
  can0       00E   [8]  08 90 1C 8A 00 00 00 00
  can0  02000100   [2]  00 00
  can0  02000100   [2]  00 00
  can0  02000100   [2]  00 00
  can0  02000100   [2]  00 00
  can0  02000100   [2]  00 00
  can0       00E   [8]  08 90 1C 8A 00 00 00 00
  can0  02000100   [2]  00 00
  can0  02000100   [2]  00 00
  can0  02000100   [2]  00 00
  can0  03C30F0F   [7]  87 87 87 87 87 87 87
  can0  02000100   [2]  00 00
  can0  02000100   [2]  00 00
  can0       00E   [8]  08 90 1C 8A 00 00 00 00
  can0  02000100   [2]  00 00
  can0  02000100   [2]  00 00
  can0  02000100   [2]  00 00
  can0  02000100   [2]  00 00
  can0  02000100   [2]  00 00
  can0       00E   [8]  08 90 1C 8A 00 00 00 00
  can0  02000100   [2]  00 00
  can0  02000100   [2]  00 00
  can0  02000100   [2]  00 00
  can0  03C30F0F   [7]  87 87 87 87 87 87 87
  can0  02000100   [2]  00 00
  can0  02000100   [2]  00 00
  can0       00E   [8]  08 90 1C 8A 00 00 00 00
  can0  02000100   [2]  00 00
  can0  02000100   [2]  00 00
  can0  02000100   [2]  00 00
  can0  02000100   [2]  00 00
  can0  02000100   [2]  00 00
  can0       00E   [8]  08 90 1C 8A 00 00 00 00
  can0  02000100   [2]  00 00
  can0  02000100   [2]  00 00
  can0  02000100   [2]  00 00
  can0  03C30F0F   [7]  87 87 87 87 87 87 87
  can0  02000100   [2]  00 00
  can0  0C140000   [1]  C0
  can0  02000100   [2]  00 00
  can0       00E   [8]  08 90 1C 8A 00 00 00 00
  can0  02000100   [2]  00 00
  can0  02000100   [2]  00 00
  can0  02000100   [2]  00 00
  can0  02000100   [2]  00 00
  can0  02000100   [2]  00 00
  can0       00E   [8]  08 90 1C 8A 00 00 00 00
  can0  02000100   [2]  00 00
  can0  02000100   [2]  00 00
  can0  02000100   [2]  00 00
  can0  03C30F0F   [7]  87 87 87 87 87 87 87
  can0  02000100   [2]  00 00
  can0  0C140000   [1]  C1
  can0  02000100   [2]  00 00
  can0       00E   [8]  08 90 1C 8A 00 00 00 00
  can0  02000100   [2]  00 00
  can0  02000100   [2]  00 00
  can0  02000100   [2]  00 00
  can0  02000100   [2]  00 00
  can0  02000100   [2]  00 00
  can0       00E   [8]  08 90 1C 8A 00 00 00 00
  can0  02000100   [2]  00 00
  can0  02000100   [2]  00 00
  can0  02000100   [2]  00 00
  can0  03C30F0F   [7]  87 87 87 87 87 87 87
  can0  02000100   [2]  00 00
  can0  02000100   [2]  00 00
  can0       00E   [8]  08 90 1C 8A 00 00 00 00
  can0  02000100   [2]  00 00
  can0  02000100   [2]  00 00
  can0  02000100   [2]  00 00
  can0  02000100   [2]  00 00
  can0  02000100   [2]  00 00
  can0       00E   [8]  08 90 1C 8A 00 00 00 00
  can0  02000100   [2]  00 00
  can0  02000100   [2]  00 00
  can0  02000100   [2]  00 00
  can0  03C30F0F   [7]  87 87 87 87 87 87 87
  can0  02000100   [2]  00 00
  can0  02000100   [2]  00 00
  can0       00E   [8]  08 90 1C 8A 00 00 00 00
  can0  02000100   [2]  00 00
  can0  02000100   [2]  00 00
  can0  02000100   [2]  00 00
  can0  02000100   [2]  00 00
  can0  02000100   [2]  00 00
  can0       00E   [8]  08 90 1C 8A 00 00 00 00
  can0  02000100   [2]  00 00
  can0  02000100   [2]  00 00
  can0  02000100   [2]  00 00
  can0  03C30F0F   [7]  87 87 87 87 87 87 87
  can0  02000100   [2]  00 00
  can0  02000100   [2]  00 00
  can0       00E   [8]  08 90 1C 8A 00 00 00 00
  can0  02000100   [2]  00 00
  can0  02000100   [2]  00 00
  can0  02000100   [2]  00 00
  can0  02000100   [2]  00 00
  can0  02000100   [2]  00 00
  can0       00E   [8]  08 90 1C 8A 00 00 00 00
  can0  02000100   [2]  00 00
  can0  02000100   [2]  00 00
  can0  02000100   [2]  00 00
  can0  03C30F0F   [7]  87 87 87 87 87 87 87
  can0  02000100   [2]  00 00
  can0  02000100   [2]  00 00
  can0       00E   [8]  08 90 1C 8A 00 00 00 00
  can0  02000100   [2]  00 00
  can0  02000100   [2]  00 00
  can0  02000100   [2]  00 00
  can0  02000100   [2]  00 00
  can0  02000100   [2]  00 00
  can0       00E   [8]  08 90 1C 8A 00 00 00 00
  can0  02000100   [2]  00 00
  can0  02000100   [2]  00 00
  can0  02000100   [2]  00 00
  can0  03C30F0F   [7]  87 87 87 87 87 87 87
  can0  02000100   [2]  00 00
  can0  02000100   [2]  00 00
  can0       00E   [8]  08 90 1C 8A 00 00 00 00
  can0  02000100   [2]  00 00
  can0  02000100   [2]  00 00
  can0  02000100   [2]  00 00
  can0  02000100   [2]  00 00
  can0  02000100   [2]  00 00
  can0       00E   [8]  08 90 1C 8A 00 00 00 00
  can0  02000100   [2]  00 00
  can0  02000100   [2]  00 00
  can0  02000100   [2]  00 00
  can0  03C30F0F   [7]  87 87 87 87 87 87 87
  can0  02000100   [2]  00 00
  can0  02000100   [2]  00 00
  can0       00E   [8]  08 90 1C 8A 00 00 00 00
  can0  02000100   [2]  00 00
  can0  02000100   [2]  00 00
  can0  02000100   [2]  00 00
  can0  02000100   [2]  00 00
  can0  02000100   [2]  00 00
  can0       00E   [8]  08 90 1C 8A 00 00 00 00
  can0  02000100   [2]  00 00
  can0  02000100   [2]  00 00
  can0  02000100   [2]  00 00
  can0  03C30F0F   [7]  87 87 87 87 87 87 87
  can0  02000100   [2]  00 00
  can0  02000100   [2]  00 00
  can0       00E   [8]  08 90 1C 8A 00 00 00 00
  can0  02000100   [2]  00 00
  can0  02000100   [2]  00 00
  can0  02000100   [2]  00 00
  can0  02000100   [2]  00 00
  can0  02000100   [2]  00 00
  can0       004   [0]  remote request
  can0       004   [0] 
  can0       002   [0] 
  can0       002   [0]  remote request
  can0       004   [0] 
  can0       061   [4]  40 40 00 00
  can0       060   [4]  51 00 00 02
  can0       060   [4]  60 00 00 00
  can0       060   [4]  70 00 00 09
  can0       060   [4]  80 00 00 10
  can0       002   [0]  remote request
  can0       002   [0] 
  can0       004   [0] 
  can0       002   [0] 
  can0       002   [0]  remote request
  can0       004   [0] 
  can0       002   [0]  remote request
  can0       002   [0] 
  can0       000   [0]  remote request
  can0       000   [0] 
